 ****** HSPICE -- I-2013.12-SP2 64-BIT (May 27 2014) RHEL64 ******              
  Copyright (C) 2014 Synopsys, Inc. All Rights Reserved.                        
  Unpublished-rights reserved under US copyright laws.
  This program is protected by law and is subject to the
  terms and conditions of the license agreement from Synopsys.
  Use of this program is your acceptance to be bound by the
  license agreement. HSPICE is the trademark of Synopsys, Inc.
  Input File: DP_2020_top_level.sp                                              
  Command line options: DP_2020_top_level.sp
 lic:  
 lic: FLEXlm: v10.9.8 
 lic: USER:   zdcao                HOSTNAME: caddy04 
 lic: HOSTID: b6b5d8e50762         PID:      14208 
 lic: Using FLEXlm license file: 
 lic: 27000@cadlic0 
 lic: Checkout 1 hspice 
 lic: License/Maintenance for hspice will expire on 06-nov-2020/2018.09 
 lic: 3(in_use)/200(total) FLOATING license(s) on SERVER 27000@cadlic0 
 lic:   
  
      
 *****************************************************************
 ******  option summary
 ******
 runlvl  = 3         bypass  = 2         
  Opening plot unit= 15
 file=DP_2020_top_level.pa0

 **info** dc convergence successful at Newton-Raphson method 
 ****** HSPICE -- I-2013.12-SP2 64-BIT (May 27 2014) RHEL64 ******              
 ******  
 * design project ee 114/214a - 2020

 ****** operating point information tnom=  25.000 temp=  25.000 ******
 ****** operating point status is all       simulation time is     0.     
    node    =voltage      node    =voltage      node    =voltage

 +0:iina    =  -1.0996  0:iinb    =  -1.0996  0:vdd     =   2.5000 
 +0:vouta   =-251.7353m 0:voutb   =-251.7353m 0:vss     =  -2.5000 
 +1:cg_outa =   1.5241  1:cg_outb =   1.5241  1:cs_outa = 942.8259m
 +1:cs_outb = 942.8259m 1:d_gnd   = 155.7681m 1:vb_nmos =  -1.1206 
 +1:vb_pmos =   1.1121 


 **** voltage sources

 subckt                        
 element  0:vdd      0:vss     
  volts      2.5000    -2.5000 
  current -177.6112u  177.6112u
  power    444.0280u  444.0280u

     total voltage source power dissipation=  888.0560u       watts



 **** current sources

 subckt                         x1        
 element  0:iina     0:iinb     1:iref    
  volts     -3.5996     3.5996     3.6206 
  current    0.         0.        10.0000u
  power      0.         0.       -36.2061u


     total current source power dissipation= -36.2061u       watts

 **** resistors

 subckt              x1         x1         x1         x1        
 element  0:rl       1:rua      1:rda      1:rub      1:rdb     
  r value   20.0000k   70.0000k  280.0000k   70.0000k  280.0000k
  v drop     0.       975.8733m    4.0241   975.8733m    4.0241 
  current    0.        13.9410u   14.3719u   13.9410u   14.3719u
  power      0.        13.6047u   57.8343u   13.6047u   57.8343u



 **** mosfets


 subckt   x1         x1         x1         x1         x1         x1        
 element  1:ml1a     1:m1a      1:mb1a     1:ml2a     1:m2a      1:mb2a    
 model    1:pmos114. 1:nmos114. 1:nmos114. 1:nmos114. 1:nmos114. 1:nmos114.
 region     Saturati   Saturati   Saturati   Saturati   Saturati   Saturati
  id       -13.4374u   13.0066u   13.0066u    8.1441u    8.1441u    8.1441u
  ibs        0.       -14.0044f    0.       -34.4283f  -26.5577f    0.     
  ibd        9.7587f  -40.2413f  -14.0044f  -50.0000f  -34.4283f  -26.5577f
  vgs       -1.3879     1.0996     1.3794     1.5572     1.3684     1.3794 
  vds     -975.8733m    2.6237     1.4004     1.5572   787.0578m    2.6558 
  vbs        0.        -1.4004     0.        -3.4428    -2.6558     0.     
  vth     -500.0000m  853.3760m  500.0000m    1.1992     1.0787   500.0000m
  vdsat   -887.9463m  246.1866m  879.3927m  357.9431m  289.6332m  879.3927m
  vod     -887.9463m  246.1866m  879.3927m  357.9431m  289.6332m  879.3927m
  beta      34.0858u  429.2054u   33.6379u  127.1289u  194.1670u   21.0623u
  gam eff  600.0000m  600.0000m  600.0000m  600.0000m  600.0000m  600.0000m
  gm        30.2664u  105.6646u   29.5809u   45.5049u   56.2372u   18.5220u
  gds      640.6145n    1.0303u  314.1660n  704.6781n  754.9863n  154.6663n
  gmb       10.1516u   21.3696u    9.9217u    6.6275u    9.0755u    6.2125u
  cdtot      5.3429f    8.0523f    5.0294f    3.6121f    5.2068f    3.9651f
  cgtot     10.6551f   17.4791f   18.7250f    5.6179f    9.2030f   17.5433f
  cstot     14.6234f   19.8699f   22.3267f    7.2539f   10.9653f   20.9334f
  cbtot      9.4435f   10.8384f    8.8984f    5.3162f    7.1177f    7.6122f
  cgs        9.2734f   13.8267f   17.2467f    4.4734f    7.3200f   16.3334f
  cgd        1.3156f    3.4547f    1.3447f    1.1105f    1.8087f    1.0814f



 subckt   x1         x1         x1         x1         x1         x1        
 element  1:m3a      1:mb3a     1:ml1b     1:m1b      1:mb1b     1:ml2b    
 model    1:nmos114. 1:nmos114. 1:pmos114. 1:nmos114. 1:nmos114. 1:nmos114.
 region     Saturati   Saturati   Saturati   Saturati   Saturati   Saturati
  id        43.0132u   43.0132u  -13.4374u   13.0066u   13.0066u    8.1441u
  ibs      -22.4826f    0.         0.       -14.0044f    0.       -34.4283f
  ibd      -50.0000f  -22.4826f    9.7587f  -40.2413f  -14.0044f  -50.0000f
  vgs        1.1946     1.3794    -1.3879     1.0996     1.3794     1.5572 
  vds        2.7517     2.2483  -975.8733m    2.6237     1.4004     1.5572 
  vbs       -2.2483     0.         0.        -1.4004     0.        -3.4428 
  vth        1.0109   500.0000m -500.0000m  853.3760m  500.0000m    1.1992 
  vdsat    183.6607m  879.3927m -887.9463m  246.1866m  879.3927m  357.9431m
  vod      183.6607m  879.3927m -887.9463m  246.1866m  879.3927m  357.9431m
  beta       2.5503m  111.2413u   34.0858u  429.2054u   33.6379u  127.1289u
  gam eff  600.0000m  600.0000m  600.0000m  600.0000m  600.0000m  600.0000m
  gm       468.3986u   97.8248u   30.2664u  105.6646u   29.5809u   45.5049u
  gds        3.3731u    1.9333u  640.6145n    1.0303u  314.1660n  704.6781n
  gmb       80.4842u   32.8114u   10.1516u   21.3696u    9.9217u    6.6275u
  cdtot     37.6866f    6.0588f    5.3429f    8.0523f    5.0294f    3.6121f
  cgtot    102.9960f   16.4247f   10.6551f   17.4791f   18.7250f    5.6179f
  cstot    103.2821f   20.4667f   14.6234f   19.8699f   22.3267f    7.2539f
  cbtot     40.6223f   10.3064f    9.4435f   10.8384f    8.8984f    5.3162f
  cgs       81.3336f   14.2667f    9.2734f   13.8267f   17.2467f    4.4734f
  cgd       20.3375f    2.0552f    1.3156f    3.4547f    1.3447f    1.1105f



 subckt   x1         x1         x1         x1         x1         x1        
 element  1:m2b      1:mb2b     1:m3b      1:mb3b     1:mi1      1:mi2     
 model    1:nmos114. 1:nmos114. 1:nmos114. 1:nmos114. 1:nmos114. 1:nmos114.
 region     Saturati   Saturati   Saturati   Saturati   Saturati   Saturati
  id         8.1441u    8.1441u   43.0132u   43.0132u   10.0000u   10.5396u
  ibs      -26.5577f    0.       -22.4826f    0.         0.         0.     
  ibd      -34.4283f  -26.5577f  -50.0000f  -22.4826f  -13.7939f  -36.1205f
  vgs        1.3684     1.3794     1.1946     1.3794     1.3794     1.3794 
  vds      787.0578m    2.6558     2.7517     2.2483     1.3794     3.6121 
  vbs       -2.6558     0.        -2.2483     0.         0.         0.     
  vth        1.0787   500.0000m    1.0109   500.0000m  500.0000m  500.0000m
  vdsat    289.6332m  879.3927m  183.6607m  879.3927m  879.3927m  879.3927m
  vod      289.6332m  879.3927m  183.6607m  879.3927m  879.3927m  879.3927m
  beta     194.1670u   21.0623u    2.5503m  111.2413u   25.8621u   27.2575u
  gam eff  600.0000m  600.0000m  600.0000m  600.0000m  600.0000m  600.0000m
  gm        56.2372u   18.5220u  468.3986u   97.8248u   22.7430u   23.9701u
  gds      754.9863n  154.6663n    3.3731u    1.9333u  241.6661n  241.6661n
  gmb        9.0755u    6.2125u   80.4842u   32.8114u    7.6282u    8.0398u
  cdtot      5.2068f    3.9651f   37.6866f    6.0588f    4.3922f    3.7458f
  cgtot      9.2030f   17.5433f  102.9960f   16.4247f   14.4033f   14.4581f
  cstot     10.9653f   20.9334f  103.2821f   20.4667f   17.8667f   17.8667f
  cbtot      7.1177f    7.6122f   40.6223f   10.3064f    8.0612f    7.3599f
  cgs        7.3200f   16.3334f   81.3336f   14.2667f   13.2667f   13.2667f
  cgd        1.8087f    1.0814f   20.3375f    2.0552f    1.0338f    1.0886f



 subckt   x1        
 element  1:mi3     
 model    1:pmos114.
 region     Saturati
  id       -10.5396u
  ibs        0.     
  ibd       13.8795f
  vgs       -1.3879 
  vds       -1.3879 
  vbs        0.     
  vth     -500.0000m
  vdsat   -887.9463m
  vod     -887.9463m
  beta      26.7349u
  gam eff  600.0000m
  gm        23.7392u
  gds      492.7804n
  gmb        7.9624u
  cdtot      4.2446f
  cgtot      8.2013f
  cstot     11.7334f
  cbtot      7.8784f
  cgs        7.1334f
  cgd        1.0170f



 ******  
 * design project ee 114/214a - 2020

 ****** ac analysis tnom=  25.000 temp=  25.000 ******
 gaindiff=  92.1519     at=   7.0795k
             from=   1.0000k    to=   1.0000g
 f3db=  70.0554x

          ***** job concluded
 ****** HSPICE -- I-2013.12-SP2 64-BIT (May 27 2014) RHEL64 ******              
 ******  
 * design project ee 114/214a - 2020

 ****** job statistics summary tnom=  25.000 temp=  25.000 ******
  
  
 ******  Machine Information  ******
 CPU:
 model name	: Common KVM processor
 cpu MHz	: 2393.998
  
 OS:
 Linux version 3.10.0-1127.19.1.el7.x86_64 (mockbuild@kbuilder.bsys.centos.org) (gcc version 4.8.5 20150623 (Red Hat 4.8.5-39) (GCC) ) #1 SMP Tue Aug 25 17:23:54 UTC 2020


  ******  HSPICE Threads Information  ******

  Command Line Threads Count :     1
  Available CPU Count        :    16
  Actual Threads Count       :     1


  ******  Circuit Statistics  ******
  # nodes       =      14 # elements   =      32
  # resistors   =       5 # capacitors =       3 # inductors   =       0
  # mutual_inds =       0 # vccs       =       0 # vcvs        =       0
  # cccs        =       0 # ccvs       =       0 # volt_srcs   =       2
  # curr_srcs   =       3 # diodes     =       0 # bjts        =       0
  # jfets       =       0 # mosfets    =      19 # U elements  =       0
  # T elements  =       0 # W elements =       0 # B elements  =       0
  # S elements  =       0 # P elements =       0 # va device   =       0
  # vector_srcs =       0 # N elements =       0


  ******  Runtime Statistics (seconds)  ******

  analysis           time    # points   tot. iter  conv.iter
  op point           0.00           1           8
  ac analysis        0.01         601         601
  readin             0.01
  errchk             0.00
  setup              0.01
  output             0.00


           peak memory used        172.14 megabytes
           total cpu time            0.03 seconds
           total elapsed time        1.24 seconds
           job started at     16:43:55 10/29/2020
           job ended   at     16:43:56 10/29/2020


 lic: Release hspice token(s) 
 lic: total license checkout elapse time:        1.10(s)
